Time [s],Channel 0,Channel 1

2.127523442,0.417,0.356
2.127555442,0.300,0.361
2.127587442,0.147,0.135
2.127619442,0.254,0.217
2.127651442,0.366,0.196
2.127683442,0.412,0.356
2.127715442,0.351,0.381
2.127747442,0.208,0.140
2.127779442,0.244,0.196
2.127811442,0.366,0.212
2.127843442,0.406,0.356
2.127875442,0.340,0.427
2.127907442,0.219,0.161
2.127939442,0.249,0.181
2.127971442,0.381,0.232
2.128003442,0.417,0.361
2.128035442,0.325,0.448
2.128067442,0.188,0.217
2.128099442,0.239,0.186
2.128131442,0.356,0.217
2.128163442,0.432,0.361
2.128195442,0.335,0.438
2.128227442,0.158,0.207
2.128259442,0.239,0.191
2.128291442,0.361,0.227
2.128323442,0.412,0.391
2.128355442,0.361,0.432
2.128387442,0.147,0.176
2.128419442,0.249,0.207
2.128451442,0.356,0.217
2.128483442,0.406,0.386
2.128515442,0.335,0.448
2.128547442,0.153,0.161
2.128579442,0.244,0.202
2.128611442,0.396,0.232
2.128643442,0.422,0.366
2.128675442,0.315,0.453
2.128707442,0.158,0.161
2.128739442,0.249,0.196
2.128771442,0.391,0.268
2.128803442,0.422,0.366
2.128835442,0.300,0.438
2.128867442,0.168,0.176
2.128899442,0.244,0.202
2.128931442,0.376,0.304
2.128963442,0.406,0.391
2.128995442,0.300,0.427
2.129027442,0.163,0.171
2.129059442,0.305,0.207
2.129091442,0.396,0.263
2.129123442,0.396,0.371
2.129155442,0.300,0.417
2.129187442,0.168,0.171
2.129219442,0.315,0.227
2.129251442,0.437,0.258
2.129283442,0.391,0.361
2.129315442,0.300,0.422
2.129347442,0.163,0.166
2.129379442,0.274,0.279
2.129411442,0.412,0.294
2.129443442,0.391,0.356
2.129475442,0.295,0.422
2.129507442,0.208,0.176
2.129539442,0.269,0.258
2.129571442,0.417,0.320
2.129603442,0.386,0.350
2.129635442,0.274,0.412
2.129667442,0.249,0.186
2.129699442,0.325,0.222
2.129731442,0.412,0.273
2.129763442,0.386,0.350
2.129795442,0.274,0.407
2.129827442,0.203,0.237
2.129859442,0.300,0.237
2.129891442,0.427,0.279
2.129923442,0.386,0.350
2.129955442,0.295,0.407
2.129987442,0.183,0.237
2.130019442,0.300,0.273
2.130051442,0.442,0.294
2.130083442,0.386,0.345
2.130115442,0.330,0.402
2.130147442,0.244,0.207
2.130179442,0.290,0.232
2.130211442,0.442,0.299
2.130243442,0.386,0.350
2.130275442,0.315,0.432
2.130307442,0.249,0.202
2.130339442,0.295,0.196
2.130371442,0.447,0.304
2.130403442,0.401,0.345
2.130435442,0.285,0.438
2.130467442,0.208,0.248
2.130499442,0.330,0.186
2.130531442,0.442,0.299
2.130563442,0.417,0.345
2.130595442,0.315,0.427
2.130627442,0.224,0.212
2.130659442,0.366,0.191
2.130691442,0.447,0.309
2.130723442,0.401,0.381
2.130755442,0.346,0.412
2.130787442,0.219,0.181
2.130819442,0.376,0.196
2.130851442,0.442,0.304
2.130883442,0.391,0.381
2.130915442,0.310,0.427
2.130947442,0.234,0.161
2.130979442,0.406,0.212
2.131011442,0.483,0.309
2.131043442,0.406,0.356
2.131075442,0.295,0.427
2.131107442,0.254,0.150
2.131139442,0.442,0.237
2.131171442,0.467,0.335
2.131203442,0.422,0.350
2.131235442,0.300,0.407
2.131267442,0.274,0.161
2.131299442,0.447,0.237
2.131331442,0.457,0.366
2.131363442,0.401,0.386
2.131395442,0.310,0.397
2.131427442,0.279,0.140
2.131459442,0.488,0.258
2.131491442,0.462,0.330
2.131523442,0.396,0.366
2.131555442,0.325,0.386
2.131587442,0.310,0.130
2.131619442,0.488,0.289
2.131651442,0.488,0.314
2.131683442,0.391,0.350
2.131715442,0.335,0.381
2.131747442,0.335,0.125
2.131779442,0.478,0.330
2.131811442,0.462,0.350
2.131843442,0.401,0.350
2.131875442,0.351,0.381
2.131907442,0.396,0.135
2.131939442,0.472,0.314
2.131971442,0.452,0.366
2.132003442,0.406,0.356
2.132035442,0.366,0.376
2.132067442,0.432,0.161
2.132099442,0.498,0.279
2.132131442,0.452,0.309
2.132163442,0.406,0.345
2.132195442,0.381,0.371
2.132227442,0.422,0.207
2.132259442,0.478,0.289
2.132291442,0.452,0.299
2.132323442,0.412,0.340
2.132355442,0.396,0.366
2.132387442,0.417,0.202
2.132419442,0.472,0.320
2.132451442,0.457,0.289
2.132483442,0.401,0.330
2.132515442,0.432,0.361
2.132547442,0.452,0.176
2.132579442,0.457,0.268
2.132611442,0.457,0.279
2.132643442,0.406,0.325
2.132675442,0.417,0.397
2.132707442,0.457,0.176
2.132739442,0.462,0.227
2.132771442,0.462,0.279
2.132803442,0.427,0.325
2.132835442,0.412,0.402
2.132867442,0.442,0.222
2.132899442,0.442,0.196
2.132931442,0.452,0.258
2.132963442,0.442,0.314
2.132995442,0.432,0.376
2.133027442,0.452,0.202
2.133059442,0.417,0.171
2.133091442,0.457,0.258
2.133123442,0.432,0.350
2.133155442,0.442,0.361
2.133187442,0.447,0.166
2.133219442,0.396,0.171
2.133251442,0.452,0.243
2.133283442,0.427,0.356
2.133315442,0.422,0.381
2.133347442,0.452,0.140
2.133379442,0.401,0.166
2.133411442,0.483,0.237
2.133443442,0.447,0.330
2.133475442,0.417,0.376
2.133507442,0.452,0.130
2.133539442,0.427,0.166
2.133571442,0.437,0.232
2.133603442,0.462,0.325
2.133635442,0.417,0.361
2.133667442,0.457,0.125
2.133699442,0.432,0.161
2.133731442,0.371,0.248
2.133763442,0.442,0.361
2.133795442,0.417,0.335
2.133827442,0.457,0.114
2.133859442,0.472,0.166
2.133891442,0.371,0.212
2.133923442,0.432,0.340
2.133955442,0.417,0.330
2.133987442,0.457,0.099
2.134019442,0.483,0.186
2.134051442,0.401,0.202
2.134083442,0.401,0.294
2.134115442,0.417,0.340
2.134147442,0.447,0.084
2.134179442,0.472,0.232
2.134211442,0.427,0.258
2.134243442,0.381,0.279
2.134275442,0.412,0.335
2.134307442,0.467,0.068
2.134339442,0.467,0.202
2.134371442,0.432,0.284
2.134403442,0.391,0.299
2.134435442,0.406,0.330
2.134467442,0.462,0.078
2.134499442,0.498,0.176
2.134531442,0.422,0.279
2.134563442,0.422,0.371
2.134595442,0.412,0.330
2.134627442,0.452,0.155
2.134659442,0.478,0.227
2.134691442,0.417,0.289
2.134723442,0.417,0.381
2.134755442,0.422,0.330
2.134787442,0.447,0.155
2.134819442,0.462,0.294
2.134851442,0.412,0.309
2.134883442,0.432,0.407
2.134915442,0.442,0.314
2.134947442,0.478,0.140
2.134979442,0.452,0.279
2.135011442,0.432,0.366
2.135043442,0.427,0.412
2.135075442,0.422,0.361
2.135107442,0.467,0.161
2.135139442,0.437,0.289
2.135171442,0.457,0.427
2.135203442,0.447,0.417
2.135235442,0.406,0.376
2.135267442,0.447,0.227
2.135299442,0.432,0.294
2.135331442,0.462,0.443
2.135363442,0.462,0.422
2.135395442,0.427,0.361
2.135427442,0.422,0.222
2.135459442,0.417,0.340
2.135491442,0.467,0.474
2.135523442,0.447,0.448
2.135555442,0.437,0.356
2.135587442,0.401,0.207
2.135619442,0.447,0.391
2.135651442,0.472,0.474
2.135683442,0.447,0.463
2.135715442,0.401,0.391
2.135747442,0.386,0.207
2.135779442,0.452,0.412
2.135811442,0.503,0.479
2.135843442,0.467,0.443
2.135875442,0.386,0.402
2.135907442,0.356,0.232
2.135939442,0.472,0.463
2.135971442,0.483,0.494
2.136003442,0.488,0.453
2.136035442,0.346,0.402
2.136067442,0.325,0.263
2.136099442,0.478,0.479
2.136131442,0.478,0.504
2.136163442,0.478,0.484
2.136195442,0.351,0.407
2.136227442,0.300,0.263
2.136259442,0.508,0.484
2.136291442,0.483,0.489
2.136323442,0.467,0.474
2.136355442,0.335,0.422
2.136387442,0.264,0.304
2.136419442,0.498,0.484
2.136451442,0.503,0.479
2.136483442,0.462,0.468
2.136515442,0.320,0.438
2.136547442,0.229,0.314
2.136579442,0.457,0.468
2.136611442,0.478,0.504
2.136643442,0.457,0.468
2.136675442,0.310,0.448
2.136707442,0.249,0.330
2.136739442,0.401,0.417
2.136771442,0.478,0.504
2.136803442,0.452,0.468
2.136835442,0.295,0.438
2.136867442,0.249,0.335
2.136899442,0.381,0.402
2.136931442,0.467,0.468
2.136963442,0.447,0.474
2.136995442,0.285,0.443
2.137027442,0.183,0.381
2.137059442,0.315,0.443
2.137091442,0.417,0.417
2.137123442,0.447,0.468
2.137155442,0.290,0.448
2.137187442,0.137,0.356
2.137219442,0.259,0.479
2.137251442,0.371,0.386
2.137283442,0.452,0.468
2.137315442,0.320,0.443
2.137347442,0.173,0.340
2.137379442,0.229,0.458
2.137411442,0.310,0.381
2.137443442,0.457,0.468
2.137475442,0.305,0.474
2.137507442,0.173,0.340
2.137539442,0.203,0.453
2.137571442,0.274,0.407
2.137603442,0.457,0.463
2.137635442,0.274,0.479
2.137667442,0.117,0.371
2.137699442,0.203,0.458
2.137731442,0.264,0.417
2.137763442,0.483,0.468
2.137795442,0.295,0.463
2.137827442,0.081,0.340
2.137859442,0.193,0.458
2.137891442,0.259,0.412
2.137923442,0.457,0.484
2.137955442,0.320,0.468
2.137987442,0.076,0.350
2.138019442,0.198,0.463
2.138051442,0.269,0.412
2.138083442,0.447,0.479
2.138115442,0.290,0.484
2.138147442,0.071,0.330
2.138179442,0.183,0.453
2.138211442,0.335,0.427
2.138243442,0.457,0.463
2.138275442,0.269,0.474
2.138307442,0.092,0.294
2.138339442,0.178,0.443
2.138371442,0.325,0.463
2.138403442,0.478,0.463
2.138435442,0.274,0.438
2.138467442,0.137,0.268
2.138499442,0.173,0.432
2.138531442,0.315,0.489
2.138563442,0.462,0.494
2.138595442,0.295,0.438
2.138627442,0.163,0.258
2.138659442,0.249,0.443
2.138691442,0.330,0.468
2.138723442,0.462,0.489
2.138755442,0.310,0.443
2.138787442,0.173,0.253
2.138819442,0.274,0.463
2.138851442,0.366,0.468
2.138883442,0.467,0.484
2.138915442,0.325,0.448
2.138947442,0.213,0.273
2.138979442,0.249,0.504
2.139011442,0.340,0.489
2.139043442,0.452,0.479
2.139075442,0.264,0.432
2.139107442,0.112,0.217
2.139139442,0.239,0.484
2.139171442,0.320,0.494
2.139203442,0.452,0.479
2.139235442,0.259,0.422
2.139267442,0.122,0.207
2.139299442,0.285,0.463
2.139331442,0.305,0.468
2.139363442,0.442,0.463
2.139395442,0.249,0.412
2.139427442,0.092,0.243
2.139459442,0.254,0.407
2.139491442,0.295,0.463
2.139523442,0.432,0.453
2.139555442,0.254,0.402
2.139587442,0.076,0.202
2.139619442,0.178,0.299
2.139651442,0.290,0.458
2.139683442,0.427,0.448
2.139715442,0.295,0.402
2.139747442,0.127,0.171
2.139779442,0.147,0.237
2.139811442,0.285,0.453
2.139843442,0.422,0.448
2.139875442,0.264,0.427
2.139907442,0.122,0.176
2.139939442,0.132,0.222
2.139971442,0.269,0.412
2.140003442,0.417,0.438
2.140035442,0.224,0.432
2.140067442,0.071,0.217
2.140099442,0.132,0.212
2.140131442,0.239,0.325
2.140163442,0.442,0.443
2.140195442,0.249,0.417
2.140227442,0.046,0.166
2.140259442,0.122,0.202
2.140291442,0.219,0.279
2.140323442,0.422,0.463
2.140355442,0.274,0.391
2.140387442,0.036,0.125
2.140419442,0.127,0.202
2.140451442,0.183,0.227
2.140483442,0.412,0.463
2.140515442,0.239,0.417
2.140547442,0.026,0.119
2.140579442,0.112,0.181
2.140611442,0.203,0.227
2.140643442,0.427,0.432
2.140675442,0.208,0.417
2.140707442,0.015,0.114
2.140739442,0.112,0.181
2.140771442,0.183,0.253
2.140803442,0.452,0.417
2.140835442,0.203,0.402
2.140867442,0.036,0.130
2.140899442,0.132,0.191
2.140931442,0.224,0.304
2.140963442,0.437,0.443
2.140995442,0.203,0.386
2.141027442,0.051,0.119
2.141059442,0.203,0.181
2.141091442,0.279,0.248
2.141123442,0.422,0.422
2.141155442,0.198,0.371
2.141187442,0.056,0.114
2.141219442,0.229,0.196
2.141251442,0.320,0.232
2.141283442,0.406,0.402
2.141315442,0.208,0.371
2.141347442,0.081,0.109
2.141379442,0.213,0.243
2.141411442,0.401,0.289
2.141443442,0.401,0.386
2.141475442,0.219,0.366
2.141507442,0.142,0.109
2.141539442,0.234,0.212
2.141571442,0.437,0.335
2.141603442,0.406,0.376
2.141635442,0.229,0.361
2.141667442,0.208,0.114
2.141699442,0.325,0.176
2.141731442,0.432,0.294
2.141763442,0.401,0.376
2.141795442,0.234,0.356
2.141827442,0.178,0.161
2.141859442,0.310,0.186
2.141891442,0.437,0.299
2.141923442,0.406,0.376
2.141955442,0.259,0.350
2.141987442,0.173,0.155
2.142019442,0.396,0.237
2.142051442,0.437,0.294
2.142083442,0.406,0.371
2.142115442,0.315,0.356
2.142147442,0.249,0.119
2.142179442,0.417,0.217
2.142211442,0.437,0.294
2.142243442,0.412,0.371
2.142275442,0.305,0.376
2.142307442,0.269,0.109
2.142339442,0.442,0.207
2.142371442,0.442,0.299
2.142403442,0.427,0.371
2.142435442,0.279,0.391
2.142467442,0.244,0.155
2.142499442,0.457,0.232
2.142531442,0.432,0.289
2.142563442,0.457,0.391
2.142595442,0.315,0.386
2.142627442,0.269,0.145
2.142659442,0.457,0.232
2.142691442,0.442,0.304
2.142723442,0.442,0.427
2.142755442,0.325,0.391
2.142787442,0.290,0.145
2.142819442,0.467,0.237
2.142851442,0.442,0.294
2.142883442,0.447,0.432
2.142915442,0.305,0.407
2.142947442,0.315,0.073
2.142979442,0.467,0.217
2.143011442,0.493,0.289
2.143043442,0.462,0.391
2.143075442,0.335,0.366
2.143107442,0.340,0.078
2.143139442,0.462,0.202
2.143171442,0.478,0.304
2.143203442,0.472,0.371
2.143235442,0.351,0.345
2.143267442,0.346,0.089
2.143299442,0.452,0.196
2.143331442,0.462,0.330
2.143363442,0.447,0.397
2.143395442,0.366,0.330
2.143427442,0.376,0.089
2.143459442,0.437,0.176
2.143491442,0.472,0.289
2.143523442,0.442,0.376
2.143555442,0.381,0.320
2.143587442,0.406,0.094
2.143619442,0.386,0.191
2.143651442,0.498,0.263
2.143683442,0.442,0.356
2.143715442,0.386,0.325
2.143747442,0.406,0.089
2.143779442,0.371,0.222
2.143811442,0.467,0.284
2.143843442,0.447,0.345
2.143875442,0.396,0.325
2.143907442,0.447,0.089
2.143939442,0.386,0.196
2.143971442,0.412,0.273
2.144003442,0.447,0.345
2.144035442,0.391,0.314
2.144067442,0.457,0.084
2.144099442,0.452,0.176
2.144131442,0.386,0.227
2.144163442,0.452,0.340
2.144195442,0.396,0.314
2.144227442,0.437,0.135
2.144259442,0.447,0.196
2.144291442,0.356,0.212
2.144323442,0.452,0.345
2.144355442,0.401,0.294
2.144387442,0.427,0.119
2.144419442,0.452,0.222
2.144451442,0.366,0.202
2.144483442,0.447,0.330
2.144515442,0.427,0.279
2.144547442,0.447,0.068
2.144579442,0.457,0.171
2.144611442,0.396,0.202
2.144643442,0.437,0.330
2.144675442,0.401,0.314
2.144707442,0.422,0.053
2.144739442,0.457,0.140
2.144771442,0.401,0.202
2.144803442,0.442,0.325
2.144835442,0.386,0.325
2.144867442,0.401,0.099
2.144899442,0.457,0.166
2.144931442,0.412,0.237
2.144963442,0.467,0.361
2.144995442,0.401,0.309
2.145027442,0.412,0.119
2.145059442,0.452,0.196
2.145091442,0.406,0.289
2.145123442,0.457,0.417
2.145155442,0.427,0.304
2.145187442,0.406,0.089
2.145219442,0.452,0.207
2.145251442,0.401,0.294
2.145283442,0.452,0.432
2.145315442,0.391,0.330
2.145347442,0.406,0.094
2.145379442,0.442,0.237
2.145411442,0.457,0.361
2.145443442,0.462,0.427
2.145475442,0.381,0.340
2.145507442,0.401,0.109
2.145539442,0.437,0.268
2.145571442,0.462,0.432
2.145603442,0.478,0.427
2.145635442,0.371,0.330
2.145667442,0.401,0.130
2.145699442,0.422,0.273
2.145731442,0.462,0.474
2.145763442,0.462,0.458
2.145795442,0.371,0.325
2.145827442,0.391,0.145
2.145859442,0.447,0.314
2.145891442,0.478,0.474
2.145923442,0.462,0.453
2.145955442,0.366,0.330
2.145987442,0.376,0.166
2.146019442,0.442,0.366
2.146051442,0.498,0.479
2.146083442,0.467,0.448
2.146115442,0.381,0.356
2.146147442,0.361,0.186
2.146179442,0.457,0.448
2.146211442,0.478,0.499
2.146243442,0.472,0.453
2.146275442,0.366,0.361
2.146307442,0.356,0.186
2.146339442,0.462,0.443
2.146371442,0.467,0.504
2.146403442,0.472,0.458
2.146435442,0.325,0.361
2.146467442,0.274,0.191
2.146499442,0.508,0.479
2.146531442,0.472,0.479
2.146563442,0.478,0.474
2.146595442,0.320,0.381
2.146627442,0.244,0.243
2.146659442,0.498,0.499
2.146691442,0.472,0.484
2.146723442,0.483,0.474
2.146755442,0.340,0.391
2.146787442,0.239,0.253
2.146819442,0.472,0.474
2.146851442,0.472,0.484
2.146883442,0.472,0.474
2.146915442,0.356,0.402
2.146947442,0.259,0.273
2.146979442,0.406,0.407
2.147011442,0.472,0.484
2.147043442,0.472,0.474
2.147075442,0.320,0.443
2.147107442,0.239,0.309
2.147139442,0.361,0.386
2.147171442,0.472,0.484
2.147203442,0.472,0.479
2.147235442,0.295,0.453
2.147267442,0.188,0.350
2.147299442,0.305,0.402
2.147331442,0.462,0.474
2.147363442,0.498,0.484
2.147395442,0.310,0.443
2.147427442,0.137,0.330
2.147459442,0.285,0.422
2.147491442,0.452,0.448
2.147523442,0.478,0.504
2.147555442,0.330,0.432
2.147587442,0.117,0.320
2.147619442,0.264,0.443
2.147651442,0.381,0.386
2.147683442,0.478,0.509
2.147715442,0.295,0.463
2.147747442,0.112,0.314
2.147779442,0.249,0.443
2.147811442,0.381,0.381
2.147843442,0.488,0.494
2.147875442,0.269,0.474
2.147907442,0.107,0.320
2.147939442,0.244,0.458
2.147971442,0.315,0.391
2.148003442,0.503,0.494
2.148035442,0.254,0.453
2.148067442,0.097,0.320
2.148099442,0.219,0.448
2.148131442,0.300,0.453
2.148163442,0.483,0.509
2.148195442,0.254,0.432
2.148227442,0.107,0.258
2.148259442,0.264,0.453
2.148291442,0.310,0.417
2.148323442,0.472,0.494
2.148355442,0.274,0.422
2.148387442,0.127,0.232
2.148419442,0.274,0.463
2.148451442,0.351,0.417
2.148483442,0.472,0.489
2.148515442,0.290,0.422
2.148547442,0.153,0.237
2.148579442,0.224,0.494
2.148611442,0.335,0.474
2.148643442,0.472,0.484
2.148675442,0.310,0.432
2.148707442,0.234,0.279
2.148739442,0.208,0.474
2.148771442,0.330,0.489
2.148803442,0.478,0.484
2.148835442,0.315,0.438
2.148867442,0.249,0.294
2.148899442,0.259,0.448
2.148931442,0.330,0.458
2.148963442,0.483,0.489
2.148995442,0.320,0.438
2.149027442,0.264,0.325
2.149059442,0.264,0.463
2.149091442,0.335,0.453
2.149123442,0.493,0.494
2.149155442,0.351,0.443
2.149187442,0.290,0.314
2.149219442,0.259,0.499
2.149251442,0.340,0.453
2.149283442,0.488,0.499
2.149315442,0.396,0.453
2.149347442,0.315,0.320
2.149379442,0.249,0.484
2.149411442,0.346,0.453
2.149443442,0.493,0.499
2.149475442,0.371,0.489
2.149507442,0.315,0.335
2.149539442,0.229,0.402
2.149571442,0.330,0.453
2.149603442,0.472,0.484
2.149635442,0.254,0.453
2.149667442,0.092,0.237
2.149699442,0.213,0.366
2.149731442,0.320,0.448
2.149763442,0.498,0.484
2.149795442,0.274,0.417
2.149827442,0.076,0.191
2.149859442,0.183,0.284
2.149891442,0.305,0.453
2.149923442,0.472,0.499
2.149955442,0.290,0.402
2.149987442,0.066,0.155
2.150019442,0.158,0.237
2.150051442,0.295,0.453
2.150083442,0.452,0.494
2.150115442,0.239,0.417
2.150147442,0.061,0.150
2.150179442,0.168,0.243
2.150211442,0.340,0.448
2.150243442,0.457,0.474
2.150275442,0.213,0.427
2.150307442,0.051,0.145
2.150339442,0.127,0.212
2.150371442,0.315,0.422
2.150403442,0.467,0.468
2.150435442,0.188,0.391
2.150467442,0.051,0.145
2.150499442,0.147,0.222
2.150531442,0.274,0.381
2.150563442,0.452,0.489
2.150595442,0.188,0.371
2.150627442,0.041,0.135
2.150659442,0.183,0.217
2.150691442,0.239,0.279
2.150723442,0.437,0.479
2.150755442,0.178,0.366
2.150787442,0.026,0.130
2.150819442,0.168,0.222
2.150851442,0.249,0.263
2.150883442,0.427,0.463
2.150915442,0.173,0.371
2.150947442,0.026,0.125
2.150979442,0.132,0.263
2.151011442,0.188,0.248
2.151043442,0.422,0.438
2.151075442,0.183,0.376
2.151107442,0.056,0.119
2.151139442,0.132,0.227
2.151171442,0.224,0.309
2.151203442,0.422,0.438
2.151235442,0.173,0.371
2.151267442,0.107,0.145
2.151299442,0.193,0.212
2.151331442,0.249,0.248
2.151363442,0.427,0.443
2.151395442,0.178,0.366
2.151427442,0.087,0.191
2.151459442,0.203,0.227
2.151491442,0.305,0.243
2.151523442,0.427,0.427
2.151555442,0.203,0.366
2.151587442,0.076,0.186
2.151619442,0.208,0.263
2.151651442,0.325,0.243
2.151683442,0.417,0.417
2.151715442,0.244,0.361
2.151747442,0.127,0.150
2.151779442,0.219,0.212
2.151811442,0.371,0.253
2.151843442,0.417,0.407
2.151875442,0.239,0.386
2.151907442,0.163,0.140
2.151939442,0.254,0.171
2.151971442,0.417,0.289
2.152003442,0.422,0.402
2.152035442,0.224,0.397
2.152067442,0.137,0.181
2.152099442,0.269,0.161
2.152131442,0.422,0.289
2.152163442,0.452,0.402
2.152195442,0.244,0.376
2.152227442,0.153,0.150
2.152259442,0.310,0.155
2.152291442,0.432,0.304
2.152323442,0.437,0.422
2.152355442,0.279,0.356
2.152387442,0.178,0.114
2.152419442,0.376,0.176
2.152451442,0.427,0.299
2.152483442,0.432,0.422
2.152515442,0.269,0.376
2.152547442,0.213,0.089
2.152579442,0.427,0.202
2.152611442,0.467,0.304
2.152643442,0.442,0.412
2.152675442,0.254,0.376
2.152707442,0.224,0.094
2.152739442,0.442,0.212
2.152771442,0.457,0.330
2.152803442,0.457,0.412
2.152835442,0.249,0.361
2.152867442,0.229,0.119
2.152899442,0.452,0.227
2.152931442,0.442,0.366
2.152963442,0.452,0.448
2.152995442,0.264,0.366
2.153027442,0.244,0.140
